https://www.waveshare.net/wiki/Modbus_RTU_Relay_4CH

開發協議
功能碼介紹
功能碼	功能說明	備注
01	讀線圈狀態	讀繼電器狀態
03	讀保持寄存器	讀取地址、版本
05	寫單線圈	寫單個繼電器
06	寫單寄存器	設置波特率，地址
0F	寫多個線圈	寫全部繼電器
寄存器地址介紹
地址（HEX）	地址存儲內容	寄存器取值	權限	Modbus 功能碼
0x0000
……
0x0003	道通1~通道4繼電器地址	0xFF00：繼電器開啟；
0x0000：繼電器關閉；
0x5500：繼電器翻轉；
讀/寫	0x01,0x05,0x0F
0x00FF	操作全部繼電器	0xFF00：繼電器全部開啟；
0x0000：繼電器全部關閉；
0x5500：繼電器全部翻轉；	寫	0x05
0x0100
……
0x0103	道通1~通道4繼電器翻轉	0xFF00：繼電器翻轉；
0x0000：繼電器不變；
寫	0x05,0x0F
0x01FF	翻轉全部繼電器	0xFF00：繼電器全部翻轉；
0x0000：繼電器全部不變；
寫	0x05
0x0200
……
0x0203	道通1~通道4繼電器閃開	延時時間為數據*100ms
數值:0x0007，延時:7*100MS = 700MS	寫	0x05
0x0400
……
0x0403	道通1~通道4繼電器閃閉	延時時間為數據*100ms
數值:0x0007，延時:7*100MS = 700MS	寫	0x05
4x2000	串口參數	高八位為校驗方式:0x00~0x02
低八位為波特率方式:0x00~0x07	讀/寫	0x03,0x06
4x4000	設備地址	直接存儲 Modbus 地址
設備地址:0x0001-0x00FF	讀/寫	0x03,0x06
4x8000	軟件版本	轉為十進制然後小數點左移兩位即表示軟件版本
0x0064 = 100 = V1.00	讀	0x03
操作指令介紹
控制單個繼電器
發送碼：01 05 00 00 FF 00 8C 3A

字段	含義	備注
01	設備地址	0x00表示廣播地址；0x01-0xFF表示設備地址
05	05指令	控制繼電器指令
00 00	地址	要控制繼電器的寄存器地址，0x0000 - 0x0003
FF 00	指令	0xFF00：繼電器開啟；
0x0000：繼電器關閉；
0x5500：繼電器翻轉；
8C 3A	CRC16	前6字節數據的CRC16校驗和
返回碼： 01 05 00 00 FF 00 8C 3A

字段	含義	備注
01	設備地址	0x00表示廣播地址；0x01-0xFF表示設備地址
05	05指令	控制繼電器指令
00 00	地址	要控制繼電器寄存器地址，0x0000-0x0003
FF 00	指令	0xFF00：繼電器開啟；
0x0000：繼電器關閉；
0x5500：繼電器翻轉；
8C 3A	CRC16	前6字節數據的CRC16校驗和
示例：[1號地址設備]:

0號繼電器開啟 : 01 05 00 00 FF 00 8C 3A
0號繼電器關閉 : 01 05 00 00 00 00 CD CA
1號繼電器開啟 : 01 05 00 01 FF 00 DD FA
1號繼電器關閉 : 01 05 00 01 00 00 9C 0A
2號繼電器開啟 : 01 05 00 02 FF 00 2D FA
2號繼電器關閉 : 01 05 00 02 00 00 6C 0A
3號繼電器開啟 : 01 05 00 03 FF 00 7C 3A
3號繼電器關閉 : 01 05 00 03 00 00 3D CA
0號繼電器翻轉 : 01 05 00 00 55 00 F2 9A
1號繼電器翻轉 : 01 05 00 01 55 00 A3 5A
2號繼電器翻轉 : 01 05 00 02 55 00 53 5A
3號繼電器翻轉 : 01 05 00 03 55 00 02 9A
控制全部繼電器
發送碼：01 05 00 FF FF 00 BC 0A

字段	含義	備注
01	設備地址	0x00表示廣播地址；0x01-0xFF表示設備地址
05	05指令	控制繼電器指令
00 FF	地址	固定0x00FF
FF 00	指令	0xFF00：繼電器開啟；
0x0000：繼電器關閉；
0x5500：繼電器翻轉；
BC 0A	CRC16	前6字節數據的CRC16校驗和
返回碼： 01 05 00 FF FF 00 BC 0A

字段	含義	備注
01	設備地址	0x00表示廣播地址；0x01-0xFF表示設備地址
05	05指令	控制繼電器指令
00 FF	地址	固定0x00FF
FF 00	指令	0xFF00：繼電器開啟；
0x0000：繼電器關閉；
0x5500：繼電器翻轉；
BC 0A	CRC16	前6字節數據的CRC16校驗和
示例：[1號地址設備]:

全部繼電器開啟 : 01 05 00 FF FF 00 BC 0A
全部繼電器關閉 : 01 05 00 FF 00 00 FD FA
全部繼電器翻轉 : 01 05 00 FF 55 00 C2 AA
讀取繼電器狀態
發送碼：01 01 00 00 00 04 3D C9

字段	含義	備注
01	設備地址	0x00表示廣播地址；0x01-0xFF表示設備地址
01	01指令	查詢繼電器狀態指令
00 00	繼電器起始地址	繼電器的寄存器地址，0x0000 - 0x0003
00 04	繼電器數量	讀取繼電器數量，不能超過最大繼電器數量
3D C9	CRC16	前 6 字節數據的 CRC16 校驗和
返回碼：01 01 01 00 51 88

字段	含義	備注
01	設備地址	0x00表示廣播地址；0x01-0xFF表示設備地址
01	01指令	查詢繼電器狀態指令
01	字節數	返回狀態信息的所有字節數。
00	查詢的狀態	返回的繼電器狀態
Bit0:起始繼電器狀態；
Bit1:下個繼電器狀態，
依次類推，高端空閒位則為零
51 88	CRC16	前 4 字節數據的 CRC16 校驗和
示例：[1號地址設備]

發送 : 01 01 00 00 00 08 3D CC
返回 : 01 01 01 00 51 88        //全部繼電器關閉
發送 : 01 01 00 00 00 08 3D CC
返回 : 01 01 01 01 90 48        //0號繼電器開啟，其余繼電器關閉
寫繼電器狀態
發送碼：01 0F 00 00 00 04 01 0F 7E 92

字段	含義	備注
01	設備地址	0x00表示廣播地址；0x01-0xFF表示設備地址
0F	0F指令	寫繼電器狀態指令
00 00	繼電器起始地址	要控制繼電器的寄存器地址，0x0000 - 0x0003
00 04	繼電器數量	操作繼電器數量，不能超過最大繼電器數量
01	字節數量	狀態字節數
0F	繼電器狀態	Bit0:起始繼電器狀態；
Bit1:下個繼電器狀態，
依次類推，高端空閒位則為零
7E 92	CRC16	前 8 字節數據的 CRC16 校驗和
返回碼：01 0F 00 00 00 04 54 08

字段	含義	備注
01	設備地址	0x00表示廣播地址；0x01-0xFF表示設備地址
0F	0F指令	全部寄存器控制指令
00 00	繼電器起始地址	要控制繼電器的寄存器地址，0x0000 - 0x0003
00 04	繼電器數量	操作繼電器數量
54 08	CRC16	前 6 字節數據的 CRC16 校驗和
示例：[1號地址設備]

繼電器全部開啟 : 01 0F 00 00 00 04 01 0F 7E 92
繼電器全部關閉 : 01 0F 00 00 00 04 01 00 3E 96
0-1開；2-3關   : 01 0F 00 00 00 04 01 03 7E 97
繼電器閃開閃閉指令
發送碼：01 05 02 00 00 07 8D B0

字段	含義	備注
01	設備地址	0x00表示廣播地址；0x01-0xFF表示設備地址
05	05指令	單個控制指令
02	閃開閃閉	02 為是閃開指令，04為閃閉指令
00	繼電器地址	要控制的繼電器地址，0x00~0x03
00 07	間隔時間	延時時間為數據*100ms
數值:0x0007，延時:7*100MS = 700MS
閃開閃閉的時間最大設置為0x7FFF
8D B0	CRC16	前 6 字節數據的 CRC16 校驗和
返回碼：01 05 02 00 00 07 8D B0

字段	含義	備注
01	設備地址	0x00表示廣播地址；0x01-0xFF表示設備地址
05	05指令	單個控制指令
02	閃開閃閉	02 為是閃開指令，04為閃閉指令
00	繼電器地址	要控制繼電器地址，0x00~0x03
00 07	間隔時間	延時時間為數據*100ms
數值:0x0007，延時:7*100MS = 700MS
閃開閃閉的時間最大設置為0x7FFF
8D B0	CRC16	前 6 字節數據的 CRC16 校驗和
示例：[1號地址設備]

0號繼電器閃開 : 01 05 02 00 00 07 8D B0  //700MS = 7*100MS = 700MS
1號繼電器閃開 : 01 05 02 01 00 08 9C 74  //800MS
0號繼電器閃閉 : 01 05 04 00 00 05 0C F9  //500MS
1號繼電器閃閉 : 01 05 04 01 00 06 1D 38  //600MS
設置波特率指令
發送碼：01 06 20 00 00 05 42 09

字段	含義	備注
01	設備地址	0x00表示廣播地址；0x01-0xFF表示設備地址
06	06指令	設置波特率，設備地址
20 00	波特率寄存器	0x2000為設置波特率
00	校驗方式	0x00為無校驗，0x01為偶檢驗，0x02為奇校驗
05	波特率數值	波特率數值對應
0x00 : 4800
0x01 : 9600
0x02 : 19200
0x03 : 38400
0x04 : 57600
0x05 : 115200
0x06 : 128000
0x07 : 256000
42 09	CRC16	前 6 字節數據的 CRC16 校驗和
返回碼：01 06 20 00 00 05 42 09

字段	含義	備注
01	設備地址	0x00表示廣播地址；0x01-0xFF表示設備地址
06	06指令	設置波特率，設備地址
20 00	波特率寄存器	0x2000為設置波特率
00	校驗方式	0x00為無校驗，0x01為奇檢驗，0x02為偶校驗
05	波特率	波特率數值對應
0x00 : 4800
0x01 : 9600
0x02 : 19200
0x03 : 38400
0x04 : 57600
0x05 : 115200
0x06 : 128000
0x07 : 256000
42 09	CRC16	前 6 字節數據的 CRC16 校驗和
示例：[1號地址設備]

設置波特率  4800 ：01 06 20 00 00 00 82 0A
設置波特率  9600 ：01 06 20 00 00 01 43 CA
設置波特率115200 ：01 06 20 00 00 05 42 09
設置設備地址指令
發送碼：01 06 40 00 00 01 5D CA

字段	含義	備注
01	設備地址	0x00表示廣播地址；0x01-0xFF表示設備地址
06	06指令	設置波特率，設備地址
40 00	設備地址寄存器	0x4000為設置設備地址
00 01	設備地址	設置的設備地址,0x0001-0x00FF
5D CA	CRC16	前 6 字節數據的 CRC16 校驗和
返回碼：01 06 40 00 00 01 5D CA

字段	含義	備注
01	設備地址	0x00表示廣播地址；0x01-0xFF表示設備地址
06	06指令	設置波特率，設備地址
40 00	設備地址寄存器	0x4000為設置設備地址
00 01	設備地址	設置的設備地址,0x0001-0x00FF
5D CA	CRC16	前 6 字節數據的 CRC16 校驗和
示例：[1號地址設備]

設置設備地址為0x01 ：00 06 40 00 00 01 5C 1b
設置設備地址為0x02 ：00 06 40 00 00 02 1C 1A
設置設備地址為0x03 ：00 06 40 00 00 03 DD DA
讀取設備地址指令
發送碼：00 03 40 00 00 01 90 1B

字段	含義	備注
00	設備地址	0x00表示廣播地址；0x01-0xFF表示設備地址
03	03指令	讀取設備地址指令
40 00	設備地址寄存器	0x4000為讀取設備地址
00 01	字節數	固定0x0001
90 1B	CRC16	前 6 字節數據的 CRC16 校驗和
返回碼：00 03 02 00 01 44 44

字段	含義	備注
00	設備地址	0x00表示廣播地址；0x01-0xFF表示設備地址
03	03指令	讀取軟件版本，讀取設備地址指令
02	字節數	返回字節數
00 01	設備地址	設置的設備地址,0x0001-0x00FF
44 44	CRC16	前 5 字節數據的 CRC16 校驗和
示例:[2號地址設備]

發送 : 00 03 40 00 00 01 90 1B
返回 : 00 03 02 00 02 04 45     //地址0x02
讀取軟件版本指令
發送碼：01 03 80 00 00 01 AD CA

字段	含義	備注
01	設備地址	0x00表示廣播地址；0x01-0xFF表示設備地址
03	03指令	讀取軟件版本，讀取設備地址指令
80 00	軟件版本寄存器	0x4000為讀取設備地址，0x8000為讀取軟件版本
00 01	字節數	固定0x0001
AD CA	CRC16	前 6 字節數據的 CRC16 校驗和
返回碼：01 03 02 01 2C B8 09

字段	含義	備注
01	設備地址	0x00表示廣播地址；0x01-0xFF表示設備地址
03	03指令	讀取軟件版本，讀取設備地址指令
02	字節數	返回字節數
01 2C	軟件版本	轉為十進制然後小數點左移兩位即表示軟件版本

0x012C = 300 = V3.00

B8 09	CRC16	前 5 字節數據的 CRC16 校驗和
示例：

發送：01 03 80 00 00 01 AD CA
返回：01 03 02 01 2C B8 09       //0x012C = 300 =V3.00
異常功能碼
當接收到的指令出錯或者異常設備將會返回異常響應，異常響應格式如下。

返回碼：01 85 03 02 91

字段	含義	備注
01	設備地址	0x00表示廣播地址；0x01-0xFF表示設備地址
85	異常功能嗎	異常功能碼 = 請求功能碼 + 0x80
03	字節數	異常碼
02 91	CRC16	前 3 字節數據的 CRC16 校驗和
異常碼是一個單字節值，用於指示錯誤的類型。Modbus協議定義的幾個常用異常碼：

異常碼	名稱	描述
0x01	非法功能	請求的功能碼不支持
0x02	非法數據地址	請求的數據地址錯誤
0x03	非法數據值	請求的數據值或操作無法執行
0x04	服務器故障	服務器設備故障
0x05	應答	已接收到請求並正在處理
0x06	設備繁忙	設備當前正忙無法執行請求的操作
